<Qucs Dataset 0.0.15>
<indep x 10>
  +5.00000000000e+00
  +1.00000000000e+01
  +1.50000000000e+01
  +2.00000000000e+01
  +2.50000000000e+01
  +3.00000000000e+01
  +3.50000000000e+01
  +4.00000000000e+01
  +4.50000000000e+01
  +5.00000000000e+01
</indep>
<dep V1.I x>
  -6.13333333333e-01
  -4.60000000000e-01
  -3.68000000000e-01
  -3.06666666667e-01
  -2.62857142857e-01
  -2.30000000000e-01
  -2.04444444444e-01
  -1.84000000000e-01
  -1.67272727273e-01
  -1.53333333333e-01
</dep>
<dep izeja.V x>
  +3.06666666667e+00
  +4.60000000000e+00
  +5.52000000000e+00
  +6.13333333333e+00
  +6.57142857143e+00
  +6.90000000000e+00
  +7.15555555556e+00
  +7.36000000000e+00
  +7.52727272727e+00
  +7.66666666667e+00
</dep>
<dep _net0.V x>
  +9.20000000000e+00
  +9.20000000000e+00
  +9.20000000000e+00
  +9.20000000000e+00
  +9.20000000000e+00
  +9.20000000000e+00
  +9.20000000000e+00
  +9.20000000000e+00
  +9.20000000000e+00
  +9.20000000000e+00
</dep>
